date Tue Mar 30 05:00:47.039 pm 2021
base hex  timestamps absolute
internal events logged
// version 10.0.1
Begin TriggerBlock Tue Mar 30 05:00:47.039 pm 2021
   0.000000 Start of measurement
   0.000174 1  104             Tx   d 4 01 00 00 00  Length = 168000 BitCount = 87 ID = 260
   0.200000    Piston       := 1
   0.200174 1  104             Tx   d 4 01 00 00 00  Length = 168000 BitCount = 87 ID = 260
   0.400000    Piston       := 2
   0.400174 1  104             Tx   d 4 01 00 00 00  Length = 168000 BitCount = 87 ID = 260
   0.600000    Piston       := 3
   0.600174 1  104             Tx   d 4 01 00 00 00  Length = 168000 BitCount = 87 ID = 260
   0.800000    Piston       := 4
   0.800174 1  104             Tx   d 4 01 00 00 00  Length = 168000 BitCount = 87 ID = 260
   1.000000    Piston       := 5
   1.000000 1  Statistic: D 5 R 0 XD 0 XR 0 E 0 O 0 B 0.09%
   1.000174 1  104             Tx   d 4 01 00 00 00  Length = 168000 BitCount = 87 ID = 260
   1.200000    Piston       := 6
   1.200174 1  104             Tx   d 4 01 00 00 00  Length = 168000 BitCount = 87 ID = 260
   1.400000    Piston       := 7
   1.400174 1  104             Tx   d 4 01 00 00 00  Length = 168000 BitCount = 87 ID = 260
   1.600000    Piston       := 8
   1.600174 1  104             Tx   d 4 01 00 00 00  Length = 168000 BitCount = 87 ID = 260
   1.800000    Piston       := 9
   1.800174 1  104             Tx   d 4 01 00 00 00  Length = 168000 BitCount = 87 ID = 260
   2.000000    Piston       := a
   2.000000 1  Statistic: D 5 R 0 XD 0 XR 0 E 0 O 0 B 0.09%
   2.000174 1  104             Tx   d 4 01 00 00 00  Length = 168000 BitCount = 87 ID = 260
   2.200000    Piston       := b
   2.200174 1  104             Tx   d 4 01 00 00 00  Length = 168000 BitCount = 87 ID = 260
   2.400000    Piston       := c
   2.400174 1  104             Tx   d 4 01 00 00 00  Length = 168000 BitCount = 87 ID = 260
   2.600000    Piston       := d
   2.600174 1  104             Tx   d 4 01 00 00 00  Length = 168000 BitCount = 87 ID = 260
   2.800000    Piston       := e
   2.800174 1  104             Tx   d 4 01 00 00 00  Length = 168000 BitCount = 87 ID = 260
   3.000000    Piston       := f
   3.000000 1  Statistic: D 5 R 0 XD 0 XR 0 E 0 O 0 B 0.09%
   3.000174 1  104             Tx   d 4 01 00 00 00  Length = 168000 BitCount = 87 ID = 260
   3.200000    Piston       := 10
   3.200174 1  104             Tx   d 4 01 00 00 00  Length = 168000 BitCount = 87 ID = 260
   3.400000    Piston       := 0
   3.400174 1  104             Tx   d 4 01 00 00 00  Length = 168000 BitCount = 87 ID = 260
   3.600000    Piston       := 1
   3.600174 1  104             Tx   d 4 01 00 00 00  Length = 168000 BitCount = 87 ID = 260
   3.800000    Piston       := 2
   3.800174 1  104             Tx   d 4 01 00 00 00  Length = 168000 BitCount = 87 ID = 260
   4.000000    Piston       := 3
   4.000000 1  Statistic: D 5 R 0 XD 0 XR 0 E 0 O 0 B 0.09%
   4.000174 1  104             Tx   d 4 01 00 00 00  Length = 168000 BitCount = 87 ID = 260
   4.200000    Piston       := 4
   4.200174 1  104             Tx   d 4 01 00 00 00  Length = 168000 BitCount = 87 ID = 260
   4.400000    Piston       := 5
   4.400174 1  104             Tx   d 4 01 00 00 00  Length = 168000 BitCount = 87 ID = 260
   4.600000    Piston       := 6
   4.600174 1  104             Tx   d 4 01 00 00 00  Length = 168000 BitCount = 87 ID = 260
   4.800000    Piston       := 7
   4.800174 1  104             Tx   d 4 01 00 00 00  Length = 168000 BitCount = 87 ID = 260
   5.000000    Piston       := 8
   5.000000 1  Statistic: D 5 R 0 XD 0 XR 0 E 0 O 0 B 0.09%
   5.000174 1  104             Tx   d 4 01 00 00 00  Length = 168000 BitCount = 87 ID = 260
   5.200000    Piston       := 9
   5.200174 1  104             Tx   d 4 01 00 00 00  Length = 168000 BitCount = 87 ID = 260
   5.400000    Piston       := a
   5.400174 1  104             Tx   d 4 01 00 00 00  Length = 168000 BitCount = 87 ID = 260
   5.500000    Accelaration_Env := 5
   5.500134 1  106             Tx   d 2 05 00  Length = 128000 BitCount = 67 ID = 262
   5.600000    Piston       := b
   5.600170 1  104             Tx   d 4 01 00 05 00  Length = 164000 BitCount = 85 ID = 260
   5.800000    Piston       := c
   5.800170 1  104             Tx   d 4 01 00 05 00  Length = 164000 BitCount = 85 ID = 260
   6.000000    Piston       := d
   6.000000 1  Statistic: D 6 R 0 XD 0 XR 0 E 0 O 0 B 0.10%
   6.000170 1  104             Tx   d 4 01 00 05 00  Length = 164000 BitCount = 85 ID = 260
   6.200000    Piston       := e
   6.200170 1  104             Tx   d 4 01 00 05 00  Length = 164000 BitCount = 85 ID = 260
   6.380000    Accelaration_Env := 37
   6.380000    Accelaration_Env := 6e
   6.380134 1  106             Tx   d 2 37 00  Length = 128000 BitCount = 67 ID = 262
   6.380272 1  106             Tx   d 2 6E 00  Length = 132000 BitCount = 69 ID = 262
   6.400000    Piston       := f
   6.400168 1  104             Tx   d 4 01 00 6E 00  Length = 162000 BitCount = 84 ID = 260
   6.490000    Accelaration_Env := 8a
   6.490000    Accelaration_Env := a6
   6.490000    Accelaration_Env := c1
   6.490000    Accelaration_Env := dd
   6.490000    Accelaration_Env := f9
   6.490000    Accelaration_Env := 114
   6.490000    Accelaration_Env := 130
   6.490134 1  106             Tx   d 2 8A 00  Length = 128000 BitCount = 67 ID = 262
   6.490266 1  106             Tx   d 2 A6 00  Length = 126000 BitCount = 66 ID = 262
   6.490400 1  106             Tx   d 2 C1 00  Length = 128000 BitCount = 67 ID = 262
   6.490532 1  106             Tx   d 2 DD 00  Length = 126000 BitCount = 66 ID = 262
   6.490666 1  106             Tx   d 2 F9 00  Length = 128000 BitCount = 67 ID = 262
   6.490800 1  106             Tx   d 2 14 01  Length = 128000 BitCount = 67 ID = 262
   6.490936 1  106             Tx   d 2 30 01  Length = 130000 BitCount = 68 ID = 262
   6.600000    Piston       := 10
   6.600172 1  104             Tx   d 4 01 00 30 01  Length = 166000 BitCount = 86 ID = 260
   6.800000    Piston       := 0
   6.800172 1  104             Tx   d 4 01 00 30 01  Length = 166000 BitCount = 86 ID = 260
   6.820000    Accelaration_Env := 14c
   6.820000    Accelaration_Env := 167
   6.820132 1  106             Tx   d 2 4C 01  Length = 126000 BitCount = 66 ID = 262
   6.820268 1  106             Tx   d 2 67 01  Length = 130000 BitCount = 68 ID = 262
   7.000000    Piston       := 1
   7.000000 1  Statistic: D 16 R 0 XD 0 XR 0 E 0 O 0 B 0.25%
   7.000168 1  104             Tx   d 4 01 00 67 01  Length = 162000 BitCount = 84 ID = 260
   7.040000    Accelaration_Env := 183
   7.040000    Accelaration_Env := 19e
   7.040136 1  106             Tx   d 2 83 01  Length = 130000 BitCount = 68 ID = 262
   7.040270 1  106             Tx   d 2 9E 01  Length = 128000 BitCount = 67 ID = 262
   7.200000    Piston       := 2
   7.200168 1  104             Tx   d 4 01 00 9E 01  Length = 162000 BitCount = 84 ID = 260
   7.260000    Accelaration_Env := 1ba
   7.260000    Accelaration_Env := 1d6
   7.260000    Accelaration_Env := 20d
   7.260000    Accelaration_Env := 228
   7.260000    Accelaration_Env := 244
   7.260000    Accelaration_Env := 260
   7.260000    Accelaration_Env := 27b
   7.260132 1  106             Tx   d 2 BA 01  Length = 126000 BitCount = 66 ID = 262
   7.260264 1  106             Tx   d 2 D6 01  Length = 126000 BitCount = 66 ID = 262
   7.260400 1  106             Tx   d 2 0D 02  Length = 130000 BitCount = 68 ID = 262
   7.260532 1  106             Tx   d 2 28 02  Length = 126000 BitCount = 66 ID = 262
   7.260664 1  106             Tx   d 2 44 02  Length = 126000 BitCount = 66 ID = 262
   7.260798 1  106             Tx   d 2 60 02  Length = 128000 BitCount = 67 ID = 262
   7.260930 1  106             Tx   d 2 7B 02  Length = 126000 BitCount = 66 ID = 262
   7.400000    Piston       := 3
   7.400170 1  104             Tx   d 4 01 00 7B 02  Length = 164000 BitCount = 85 ID = 260
   7.590000    Accelaration_Env := 297
   7.590000    Accelaration_Env := 2ea
   7.590000    Accelaration_Env := 358
   7.590000    Accelaration_Env := 374
   7.590000    Accelaration_Env := 3ab
   7.590132 1  106             Tx   d 2 97 02  Length = 126000 BitCount = 66 ID = 262
   7.590266 1  106             Tx   d 2 EA 02  Length = 128000 BitCount = 67 ID = 262
   7.590398 1  106             Tx   d 2 58 03  Length = 126000 BitCount = 66 ID = 262
   7.590532 1  106             Tx   d 2 74 03  Length = 128000 BitCount = 67 ID = 262
   7.590664 1  106             Tx   d 2 AB 03  Length = 126000 BitCount = 66 ID = 262
   7.600000    Piston       := 4
   7.600170 1  104             Tx   d 4 01 00 AB 03  Length = 164000 BitCount = 85 ID = 260
   7.700000    Accelaration_Env := 3c7
   7.700000    Accelaration_Env := 3e2
   7.700000    Accelaration_Env := 3fe
   7.700000    Accelaration_Env := 41a
   7.700000    Accelaration_Env := 451
   7.700132 1  106             Tx   d 2 C7 03  Length = 126000 BitCount = 66 ID = 262
   7.700264 1  106             Tx   d 2 E2 03  Length = 126000 BitCount = 66 ID = 262
   7.700400 1  106             Tx   d 2 FE 03  Length = 130000 BitCount = 68 ID = 262
   7.700534 1  106             Tx   d 2 1A 04  Length = 128000 BitCount = 67 ID = 262
   7.700668 1  106             Tx   d 2 51 04  Length = 128000 BitCount = 67 ID = 262
   7.800000    Piston       := 5
   7.800168 1  104             Tx   d 4 01 00 51 04  Length = 162000 BitCount = 84 ID = 260
   7.810000    Accelaration_Env := 4a4
   7.810000    Accelaration_Env := 4c0
   7.810000    Accelaration_Env := 4db
   7.810000    Accelaration_Env := 4f7
   7.810132 1  106             Tx   d 2 A4 04  Length = 126000 BitCount = 66 ID = 262
   7.810266 1  106             Tx   d 2 C0 04  Length = 128000 BitCount = 67 ID = 262
   7.810402 1  106             Tx   d 2 DB 04  Length = 130000 BitCount = 68 ID = 262
   7.810534 1  106             Tx   d 2 F7 04  Length = 126000 BitCount = 66 ID = 262
   7.920000    Accelaration_Env := 512
   7.920132 1  106             Tx   d 2 12 05  Length = 126000 BitCount = 66 ID = 262
   8.000000    Piston       := 6
   8.000000 1  Statistic: D 29 R 0 XD 0 XR 0 E 0 O 0 B 0.45%
   8.000170 1  104             Tx   d 4 01 00 12 05  Length = 164000 BitCount = 85 ID = 260
   8.140000    Accelaration_Env := 52e
   8.140132 1  106             Tx   d 2 2E 05  Length = 126000 BitCount = 66 ID = 262
   8.200000    Piston       := 7
   8.200170 1  104             Tx   d 4 01 00 2E 05  Length = 164000 BitCount = 85 ID = 260
   8.400000    Piston       := 8
   8.400170 1  104             Tx   d 4 01 00 2E 05  Length = 164000 BitCount = 85 ID = 260
   8.600000    Piston       := 9
   8.600170 1  104             Tx   d 4 01 00 2E 05  Length = 164000 BitCount = 85 ID = 260
   8.800000    Piston       := a
   8.800170 1  104             Tx   d 4 01 00 2E 05  Length = 164000 BitCount = 85 ID = 260
   9.000000    Piston       := b
   9.000000 1  Statistic: D 6 R 0 XD 0 XR 0 E 0 O 0 B 0.10%
   9.000170 1  104             Tx   d 4 01 00 2E 05  Length = 164000 BitCount = 85 ID = 260
   9.200000    Piston       := c
   9.200170 1  104             Tx   d 4 01 00 2E 05  Length = 164000 BitCount = 85 ID = 260
   9.350000    SV: 2 0 0 ::Powertrian::Brake = 1
   9.350116 1  105             Tx   d 1 01  Length = 110000 BitCount = 58 ID = 261
   9.400000    Piston       := d
   9.400174 1  104             Tx   d 4 01 00 00 00  Length = 168000 BitCount = 87 ID = 260
   9.460000    SV: 2 0 0 ::Powertrian::Brake = 0
   9.460116 1  105             Tx   d 1 00  Length = 110000 BitCount = 58 ID = 261
   9.600000    Piston       := e
   9.600174 1  104             Tx   d 4 01 00 00 00  Length = 168000 BitCount = 87 ID = 260
   9.800000    Piston       := f
   9.800174 1  104             Tx   d 4 01 00 00 00  Length = 168000 BitCount = 87 ID = 260
  10.000000    Piston       := 10
  10.000000 1  Statistic: D 7 R 0 XD 0 XR 0 E 0 O 0 B 0.11%
  10.000174 1  104             Tx   d 4 01 00 00 00  Length = 168000 BitCount = 87 ID = 260
  10.200000    Piston       := 0
  10.200174 1  104             Tx   d 4 01 00 00 00  Length = 168000 BitCount = 87 ID = 260
  10.400000    Piston       := 1
  10.400174 1  104             Tx   d 4 01 00 00 00  Length = 168000 BitCount = 87 ID = 260
  10.560000    SV: 2 0 0 ::Powertrian::Brake = 1
  10.560116 1  105             Tx   d 1 01  Length = 110000 BitCount = 58 ID = 261
  10.600000    Piston       := 2
  10.600174 1  104             Tx   d 4 01 00 00 00  Length = 168000 BitCount = 87 ID = 260
  10.670000    SV: 2 0 0 ::Powertrian::Brake = 0
  10.670116 1  105             Tx   d 1 00  Length = 110000 BitCount = 58 ID = 261
  10.800000    Piston       := 3
  10.800174 1  104             Tx   d 4 01 00 00 00  Length = 168000 BitCount = 87 ID = 260
  11.000000    Piston       := 4
  11.000000 1  Statistic: D 7 R 0 XD 0 XR 0 E 0 O 0 B 0.11%
  11.000174 1  104             Tx   d 4 01 00 00 00  Length = 168000 BitCount = 87 ID = 260
  11.200000    Piston       := 5
  11.200174 1  104             Tx   d 4 01 00 00 00  Length = 168000 BitCount = 87 ID = 260
  11.400000    Piston       := 6
  11.400174 1  104             Tx   d 4 01 00 00 00  Length = 168000 BitCount = 87 ID = 260
  11.600000    Piston       := 7
  11.600174 1  104             Tx   d 4 01 00 00 00  Length = 168000 BitCount = 87 ID = 260
  11.800000    Piston       := 8
  11.800174 1  104             Tx   d 4 01 00 00 00  Length = 168000 BitCount = 87 ID = 260
  12.000000    Piston       := 9
  12.000000 1  Statistic: D 5 R 0 XD 0 XR 0 E 0 O 0 B 0.09%
  12.000174 1  104             Tx   d 4 01 00 00 00  Length = 168000 BitCount = 87 ID = 260
  12.200000    Piston       := a
  12.200174 1  104             Tx   d 4 01 00 00 00  Length = 168000 BitCount = 87 ID = 260
  12.210000    Accelaration_Env := 4a4
  12.210132 1  106             Tx   d 2 A4 04  Length = 126000 BitCount = 66 ID = 262
  12.320000    Accelaration_Env := 488
  12.320000    Accelaration_Env := 451
  12.320000    Accelaration_Env := 41a
  12.320000    Accelaration_Env := 3e2
  12.320000    Accelaration_Env := 3ab
  12.320000    Accelaration_Env := 390
  12.320132 1  106             Tx   d 2 88 04  Length = 126000 BitCount = 66 ID = 262
  12.320266 1  106             Tx   d 2 51 04  Length = 128000 BitCount = 67 ID = 262
  12.320400 1  106             Tx   d 2 1A 04  Length = 128000 BitCount = 67 ID = 262
  12.320532 1  106             Tx   d 2 E2 03  Length = 126000 BitCount = 66 ID = 262
  12.320664 1  106             Tx   d 2 AB 03  Length = 126000 BitCount = 66 ID = 262
  12.320800 1  106             Tx   d 2 90 03  Length = 130000 BitCount = 68 ID = 262
  12.400000    Piston       := b
  12.400172 1  104             Tx   d 4 01 00 90 03  Length = 166000 BitCount = 86 ID = 260
  12.540000    Accelaration_Env := 358
  12.540000    Accelaration_Env := 321
  12.540000    Accelaration_Env := 306
  12.540000    Accelaration_Env := 2ea
  12.540132 1  106             Tx   d 2 58 03  Length = 126000 BitCount = 66 ID = 262
  12.540264 1  106             Tx   d 2 21 03  Length = 126000 BitCount = 66 ID = 262
  12.540398 1  106             Tx   d 2 06 03  Length = 128000 BitCount = 67 ID = 262
  12.540532 1  106             Tx   d 2 EA 02  Length = 128000 BitCount = 67 ID = 262
  12.600000    Piston       := c
  12.600168 1  104             Tx   d 4 01 00 EA 02  Length = 162000 BitCount = 84 ID = 260
  12.650000    Accelaration_Env := 2ce
  12.650136 1  106             Tx   d 2 CE 02  Length = 130000 BitCount = 68 ID = 262
  12.760000    Accelaration_Env := 2b3
  12.760000    Accelaration_Env := 297
  12.760000    Accelaration_Env := 27b
  12.760000    Accelaration_Env := 260
  12.760000    Accelaration_Env := 244
  12.760132 1  106             Tx   d 2 B3 02  Length = 126000 BitCount = 66 ID = 262
  12.760264 1  106             Tx   d 2 97 02  Length = 126000 BitCount = 66 ID = 262
  12.760396 1  106             Tx   d 2 7B 02  Length = 126000 BitCount = 66 ID = 262
  12.760530 1  106             Tx   d 2 60 02  Length = 128000 BitCount = 67 ID = 262
  12.760662 1  106             Tx   d 2 44 02  Length = 126000 BitCount = 66 ID = 262
  12.800000    Piston       := d
  12.800168 1  104             Tx   d 4 01 00 44 02  Length = 162000 BitCount = 84 ID = 260
  13.000000    Piston       := e
  13.000000 1  Statistic: D 22 R 0 XD 0 XR 0 E 0 O 0 B 0.35%
  13.000168 1  104             Tx   d 4 01 00 44 02  Length = 162000 BitCount = 84 ID = 260
  13.090000    Accelaration_Env := 228
  13.090000    Accelaration_Env := 1f1
  13.090000    Accelaration_Env := 1ba
  13.090000    Accelaration_Env := 19e
  13.090132 1  106             Tx   d 2 28 02  Length = 126000 BitCount = 66 ID = 262
  13.090264 1  106             Tx   d 2 F1 01  Length = 126000 BitCount = 66 ID = 262
  13.090396 1  106             Tx   d 2 BA 01  Length = 126000 BitCount = 66 ID = 262
  13.090530 1  106             Tx   d 2 9E 01  Length = 128000 BitCount = 67 ID = 262
  13.200000    Piston       := f
  13.200000    Accelaration_Env := 183
  13.200168 1  104             Tx   d 4 01 00 9E 01  Length = 162000 BitCount = 84 ID = 260
  13.200304 1  106             Tx   d 2 83 01  Length = 130000 BitCount = 68 ID = 262
  13.310000    Accelaration_Env := 14c
  13.310000    Accelaration_Env := 114
  13.310000    Accelaration_Env := f9
  13.310132 1  106             Tx   d 2 4C 01  Length = 126000 BitCount = 66 ID = 262
  13.310266 1  106             Tx   d 2 14 01  Length = 128000 BitCount = 67 ID = 262
  13.310400 1  106             Tx   d 2 F9 00  Length = 128000 BitCount = 67 ID = 262
  13.400000    Piston       := 10
  13.400170 1  104             Tx   d 4 01 00 F9 00  Length = 164000 BitCount = 85 ID = 260
  13.420000    Accelaration_Env := dd
  13.420132 1  106             Tx   d 2 DD 00  Length = 126000 BitCount = 66 ID = 262
  13.600000    Piston       := 0
  13.600172 1  104             Tx   d 4 01 00 DD 00  Length = 166000 BitCount = 86 ID = 260
  13.750000    Accelaration_Env := c1
  13.750134 1  106             Tx   d 2 C1 00  Length = 128000 BitCount = 67 ID = 262
  13.800000    Piston       := 1
  13.800174 1  104             Tx   d 4 01 00 C1 00  Length = 168000 BitCount = 87 ID = 260
  14.000000    Piston       := 2
  14.000000 1  Statistic: D 15 R 0 XD 0 XR 0 E 0 O 0 B 0.24%
  14.000174 1  104             Tx   d 4 01 00 C1 00  Length = 168000 BitCount = 87 ID = 260
  14.190000    Accelaration_Env := a6
  14.190000    Accelaration_Env := 8a
  14.190132 1  106             Tx   d 2 A6 00  Length = 126000 BitCount = 66 ID = 262
  14.190266 1  106             Tx   d 2 8A 00  Length = 128000 BitCount = 67 ID = 262
  14.200000    Piston       := 3
  14.200170 1  104             Tx   d 4 01 00 8A 00  Length = 164000 BitCount = 85 ID = 260
  14.400000    Piston       := 4
  14.400170 1  104             Tx   d 4 01 00 8A 00  Length = 164000 BitCount = 85 ID = 260
  14.410000    Accelaration_Env := 6e
  14.410000    Accelaration_Env := 53
  14.410000    Accelaration_Env := 37
  14.410000    Accelaration_Env := 0
  14.410138 1  106             Tx   d 2 6E 00  Length = 132000 BitCount = 69 ID = 262
  14.410272 1  106             Tx   d 2 53 00  Length = 128000 BitCount = 67 ID = 262
  14.410406 1  106             Tx   d 2 37 00  Length = 128000 BitCount = 67 ID = 262
  14.410542 1  106             Tx   d 2 00 00  Length = 130000 BitCount = 68 ID = 262
  14.600000    Piston       := 5
  14.600174 1  104             Tx   d 4 01 00 00 00  Length = 168000 BitCount = 87 ID = 260
  14.800000    Piston       := 6
  14.800174 1  104             Tx   d 4 01 00 00 00  Length = 168000 BitCount = 87 ID = 260
  15.000000    Piston       := 7
  15.000000 1  Statistic: D 11 R 0 XD 0 XR 0 E 0 O 0 B 0.18%
  15.000174 1  104             Tx   d 4 01 00 00 00  Length = 168000 BitCount = 87 ID = 260
  15.200000    Piston       := 8
  15.200174 1  104             Tx   d 4 01 00 00 00  Length = 168000 BitCount = 87 ID = 260
  15.400000    Piston       := 9
  15.400174 1  104             Tx   d 4 01 00 00 00  Length = 168000 BitCount = 87 ID = 260
  15.600000    Piston       := a
  15.600174 1  104             Tx   d 4 01 00 00 00  Length = 168000 BitCount = 87 ID = 260
  15.620000    SV: 2 0 0 ::Powertrian::Brake = 1
  15.620116 1  105             Tx   d 1 01  Length = 110000 BitCount = 58 ID = 261
  15.730000    SV: 2 0 0 ::Powertrian::Brake = 0
  15.730116 1  105             Tx   d 1 00  Length = 110000 BitCount = 58 ID = 261
  15.800000    Piston       := b
  15.800174 1  104             Tx   d 4 01 00 00 00  Length = 168000 BitCount = 87 ID = 260
  16.000000    Piston       := c
  16.000000 1  Statistic: D 7 R 0 XD 0 XR 0 E 0 O 0 B 0.11%
  16.000174 1  104             Tx   d 4 01 00 00 00  Length = 168000 BitCount = 87 ID = 260
  16.200000    Piston       := d
  16.200174 1  104             Tx   d 4 01 00 00 00  Length = 168000 BitCount = 87 ID = 260
  16.400000    Piston       := e
  16.400174 1  104             Tx   d 4 01 00 00 00  Length = 168000 BitCount = 87 ID = 260
  16.600000    Piston       := f
  16.600174 1  104             Tx   d 4 01 00 00 00  Length = 168000 BitCount = 87 ID = 260
  16.800000    Piston       := 10
  16.800174 1  104             Tx   d 4 01 00 00 00  Length = 168000 BitCount = 87 ID = 260
  17.000000    Piston       := 0
  17.000000 1  Statistic: D 5 R 0 XD 0 XR 0 E 0 O 0 B 0.09%
  17.000174 1  104             Tx   d 4 01 00 00 00  Length = 168000 BitCount = 87 ID = 260
  17.050000    SV: 2 0 0 ::Powertrian::Brake = 1
  17.050116 1  105             Tx   d 1 01  Length = 110000 BitCount = 58 ID = 261
  17.160000    SV: 2 0 0 ::Powertrian::Brake = 0
  17.160116 1  105             Tx   d 1 00  Length = 110000 BitCount = 58 ID = 261
  17.200000    Piston       := 1
  17.200174 1  104             Tx   d 4 01 00 00 00  Length = 168000 BitCount = 87 ID = 260
  17.400000    Piston       := 2
  17.400174 1  104             Tx   d 4 01 00 00 00  Length = 168000 BitCount = 87 ID = 260
  17.600000    Piston       := 3
  17.600174 1  104             Tx   d 4 01 00 00 00  Length = 168000 BitCount = 87 ID = 260
  17.800000    Piston       := 4
  17.800174 1  104             Tx   d 4 01 00 00 00  Length = 168000 BitCount = 87 ID = 260
  18.000000    Piston       := 5
  18.000000 1  Statistic: D 7 R 0 XD 0 XR 0 E 0 O 0 B 0.11%
  18.000174 1  104             Tx   d 4 01 00 00 00  Length = 168000 BitCount = 87 ID = 260
  18.040000    SV: 2 0 0 ::Powertrian::Brake = 1
  18.040116 1  105             Tx   d 1 01  Length = 110000 BitCount = 58 ID = 261
  18.150000    SV: 2 0 0 ::Powertrian::Brake = 0
  18.150116 1  105             Tx   d 1 00  Length = 110000 BitCount = 58 ID = 261
  18.200000    Piston       := 6
  18.200174 1  104             Tx   d 4 01 00 00 00  Length = 168000 BitCount = 87 ID = 260
  18.400000    Piston       := 7
  18.400174 1  104             Tx   d 4 01 00 00 00  Length = 168000 BitCount = 87 ID = 260
  18.600000    Piston       := 8
  18.600174 1  104             Tx   d 4 01 00 00 00  Length = 168000 BitCount = 87 ID = 260
  18.800000    Piston       := 9
  18.800174 1  104             Tx   d 4 01 00 00 00  Length = 168000 BitCount = 87 ID = 260
  19.000000    Piston       := a
  19.000000 1  Statistic: D 7 R 0 XD 0 XR 0 E 0 O 0 B 0.11%
  19.000174 1  104             Tx   d 4 01 00 00 00  Length = 168000 BitCount = 87 ID = 260
  19.030000    SV: 2 0 0 ::Powertrian::Brake = 1
  19.030116 1  105             Tx   d 1 01  Length = 110000 BitCount = 58 ID = 261
  19.140000    SV: 2 0 0 ::Powertrian::Brake = 0
  19.140116 1  105             Tx   d 1 00  Length = 110000 BitCount = 58 ID = 261
  19.200000    Piston       := b
  19.200174 1  104             Tx   d 4 01 00 00 00  Length = 168000 BitCount = 87 ID = 260
  19.400000    Piston       := c
  19.400174 1  104             Tx   d 4 01 00 00 00  Length = 168000 BitCount = 87 ID = 260
  19.600000    Piston       := d
  19.600174 1  104             Tx   d 4 01 00 00 00  Length = 168000 BitCount = 87 ID = 260
  19.690000    SV: 2 0 0 ::Powertrian::Brake = 0
  19.690116 1  105             Tx   d 1 00  Length = 110000 BitCount = 58 ID = 261
  19.800000    Piston       := e
  19.800174 1  104             Tx   d 4 01 00 00 00  Length = 168000 BitCount = 87 ID = 260
  20.000000    Piston       := f
  20.000000 1  Statistic: D 8 R 0 XD 0 XR 0 E 0 O 0 B 0.13%
  20.000174 1  104             Tx   d 4 01 00 00 00  Length = 168000 BitCount = 87 ID = 260
  20.200000    Piston       := 10
  20.200174 1  104             Tx   d 4 01 00 00 00  Length = 168000 BitCount = 87 ID = 260
  20.400000    Piston       := 0
  20.400174 1  104             Tx   d 4 01 00 00 00  Length = 168000 BitCount = 87 ID = 260
  20.600000    Piston       := 1
  20.600174 1  104             Tx   d 4 01 00 00 00  Length = 168000 BitCount = 87 ID = 260
  20.800000    Piston       := 2
  20.800174 1  104             Tx   d 4 01 00 00 00  Length = 168000 BitCount = 87 ID = 260
  21.000000    Piston       := 3
  21.000000 1  Statistic: D 5 R 0 XD 0 XR 0 E 0 O 0 B 0.09%
  21.000174 1  104             Tx   d 4 01 00 00 00  Length = 168000 BitCount = 87 ID = 260
  21.200000    Piston       := 4
  21.200174 1  104             Tx   d 4 01 00 00 00  Length = 168000 BitCount = 87 ID = 260
  21.400000    Piston       := 5
  21.400174 1  104             Tx   d 4 01 00 00 00  Length = 168000 BitCount = 87 ID = 260
  21.600000    Piston       := 6
  21.600174 1  104             Tx   d 4 01 00 00 00  Length = 168000 BitCount = 87 ID = 260
  21.800000    Piston       := 7
  21.800174 1  104             Tx   d 4 01 00 00 00  Length = 168000 BitCount = 87 ID = 260
  22.000000    Piston       := 8
  22.000000 1  Statistic: D 5 R 0 XD 0 XR 0 E 0 O 0 B 0.09%
  22.000174 1  104             Tx   d 4 01 00 00 00  Length = 168000 BitCount = 87 ID = 260
  22.200000    Piston       := 9
  22.200174 1  104             Tx   d 4 01 00 00 00  Length = 168000 BitCount = 87 ID = 260
  22.400000    Piston       := a
  22.400174 1  104             Tx   d 4 01 00 00 00  Length = 168000 BitCount = 87 ID = 260
  22.600000    Piston       := b
  22.600174 1  104             Tx   d 4 01 00 00 00  Length = 168000 BitCount = 87 ID = 260
  22.800000    Piston       := c
  22.800174 1  104             Tx   d 4 01 00 00 00  Length = 168000 BitCount = 87 ID = 260
  23.000000    Piston       := d
  23.000000 1  Statistic: D 5 R 0 XD 0 XR 0 E 0 O 0 B 0.09%
  23.000174 1  104             Tx   d 4 01 00 00 00  Length = 168000 BitCount = 87 ID = 260
  23.200000    Piston       := e
  23.200174 1  104             Tx   d 4 01 00 00 00  Length = 168000 BitCount = 87 ID = 260
  23.400000    Piston       := f
  23.400174 1  104             Tx   d 4 01 00 00 00  Length = 168000 BitCount = 87 ID = 260
  23.600000    Piston       := 10
  23.600174 1  104             Tx   d 4 01 00 00 00  Length = 168000 BitCount = 87 ID = 260
  23.800000    Piston       := 0
  23.800174 1  104             Tx   d 4 01 00 00 00  Length = 168000 BitCount = 87 ID = 260
  24.000000    Piston       := 1
  24.000000 1  Statistic: D 5 R 0 XD 0 XR 0 E 0 O 0 B 0.09%
  24.000174 1  104             Tx   d 4 01 00 00 00  Length = 168000 BitCount = 87 ID = 260
  24.200000    Piston       := 2
  24.200174 1  104             Tx   d 4 01 00 00 00  Length = 168000 BitCount = 87 ID = 260
  24.400000    Piston       := 3
  24.400174 1  104             Tx   d 4 01 00 00 00  Length = 168000 BitCount = 87 ID = 260
  24.600000    Piston       := 4
  24.600174 1  104             Tx   d 4 01 00 00 00  Length = 168000 BitCount = 87 ID = 260
  24.800000    Piston       := 5
  24.800174 1  104             Tx   d 4 01 00 00 00  Length = 168000 BitCount = 87 ID = 260
  25.000000    Piston       := 6
  25.000000 1  Statistic: D 5 R 0 XD 0 XR 0 E 0 O 0 B 0.09%
  25.000174 1  104             Tx   d 4 01 00 00 00  Length = 168000 BitCount = 87 ID = 260
  25.200000    Piston       := 7
  25.200174 1  104             Tx   d 4 01 00 00 00  Length = 168000 BitCount = 87 ID = 260
  25.400000    Piston       := 8
  25.400174 1  104             Tx   d 4 01 00 00 00  Length = 168000 BitCount = 87 ID = 260
  25.600000    Piston       := 9
  25.600174 1  104             Tx   d 4 01 00 00 00  Length = 168000 BitCount = 87 ID = 260
  25.800000    Piston       := a
  25.800174 1  104             Tx   d 4 01 00 00 00  Length = 168000 BitCount = 87 ID = 260
  26.000000    Piston       := b
  26.000000 1  Statistic: D 5 R 0 XD 0 XR 0 E 0 O 0 B 0.09%
  26.000174 1  104             Tx   d 4 01 00 00 00  Length = 168000 BitCount = 87 ID = 260
  26.200000    Piston       := c
  26.200174 1  104             Tx   d 4 01 00 00 00  Length = 168000 BitCount = 87 ID = 260
  26.400000    Piston       := d
  26.400174 1  104             Tx   d 4 01 00 00 00  Length = 168000 BitCount = 87 ID = 260
  26.600000    Piston       := e
  26.600174 1  104             Tx   d 4 01 00 00 00  Length = 168000 BitCount = 87 ID = 260
  26.800000    Piston       := f
  26.800174 1  104             Tx   d 4 01 00 00 00  Length = 168000 BitCount = 87 ID = 260
  27.000000    Piston       := 10
  27.000000 1  Statistic: D 5 R 0 XD 0 XR 0 E 0 O 0 B 0.09%
  27.000174 1  104             Tx   d 4 01 00 00 00  Length = 168000 BitCount = 87 ID = 260
  27.200000    Piston       := 0
  27.200174 1  104             Tx   d 4 01 00 00 00  Length = 168000 BitCount = 87 ID = 260
  27.400000    Piston       := 1
  27.400174 1  104             Tx   d 4 01 00 00 00  Length = 168000 BitCount = 87 ID = 260
  27.600000    Piston       := 2
  27.600174 1  104             Tx   d 4 01 00 00 00  Length = 168000 BitCount = 87 ID = 260
  27.800000    Piston       := 3
  27.800174 1  104             Tx   d 4 01 00 00 00  Length = 168000 BitCount = 87 ID = 260
  28.000000    Piston       := 4
  28.000000 1  Statistic: D 5 R 0 XD 0 XR 0 E 0 O 0 B 0.09%
  28.000174 1  104             Tx   d 4 01 00 00 00  Length = 168000 BitCount = 87 ID = 260
  28.200000    Piston       := 5
  28.200174 1  104             Tx   d 4 01 00 00 00  Length = 168000 BitCount = 87 ID = 260
  28.400000    Piston       := 6
  28.400174 1  104             Tx   d 4 01 00 00 00  Length = 168000 BitCount = 87 ID = 260
  28.600000    Piston       := 7
  28.600174 1  104             Tx   d 4 01 00 00 00  Length = 168000 BitCount = 87 ID = 260
  28.800000    Piston       := 8
  28.800174 1  104             Tx   d 4 01 00 00 00  Length = 168000 BitCount = 87 ID = 260
  29.000000    Piston       := 9
  29.000000 1  Statistic: D 5 R 0 XD 0 XR 0 E 0 O 0 B 0.09%
  29.000174 1  104             Tx   d 4 01 00 00 00  Length = 168000 BitCount = 87 ID = 260
  29.200000    Piston       := a
  29.200174 1  104             Tx   d 4 01 00 00 00  Length = 168000 BitCount = 87 ID = 260
  29.400000    Piston       := b
  29.400174 1  104             Tx   d 4 01 00 00 00  Length = 168000 BitCount = 87 ID = 260
  29.600000    Piston       := c
  29.600174 1  104             Tx   d 4 01 00 00 00  Length = 168000 BitCount = 87 ID = 260
  29.800000    Piston       := d
  29.800174 1  104             Tx   d 4 01 00 00 00  Length = 168000 BitCount = 87 ID = 260
  30.000000    Piston       := e
  30.000000 1  Statistic: D 5 R 0 XD 0 XR 0 E 0 O 0 B 0.09%
  30.000174 1  104             Tx   d 4 01 00 00 00  Length = 168000 BitCount = 87 ID = 260
  30.200000    Piston       := f
  30.200174 1  104             Tx   d 4 01 00 00 00  Length = 168000 BitCount = 87 ID = 260
End TriggerBlock
